
T24F0 000:075 SEGGER J-Link V6.10i Log File (0001ms, 0018ms total)
T24F0 000:075 DLL Compiled: Oct 25 2016 19:31:51 (0001ms, 0018ms total)
T24F0 000:075 Logging started @ 2017-08-25 20:45 (0001ms, 0018ms total)
T24F0 000:076 JLINK_SetWarnOutHandler(...) (0000ms, 0018ms total)
T24F0 000:076 JLINK_OpenEx(...)
Firmware: J-Link ARM V8 compiled Nov 28 2014 13:44:46
Hardware: V8.00
S/N: 17935099
Feature(s): RDI,FlashDL,FlashBP,JFlashWEBSRV Webserver running on local port 19080 (0015ms, 0033ms total)
T24F0 000:076   returns O.K. (0015ms, 0033ms total)
T24F0 000:091 JLINK_SetErrorOutHandler(...) (0000ms, 0033ms total)
T24F0 000:091 JLINK_ExecCommand("ProjectFile = "D:\Make\ÁùÖáÎÞÈË»ú\code\Flying\RemoteControl\USER\JLinkSettings.ini"", ...).   returns 0x00 (0134ms, 0167ms total)
T24F0 000:225 JLINK_ExecCommand("Device = STM32F103VE", ...). Device "STM32F103VE" selected.  returns 0x00 (0001ms, 0168ms total)
T24F0 000:226 JLINK_ExecCommand("DisableConnectionTimeout", ...).   returns 0x01 (0000ms, 0168ms total)
T24F0 000:226 JLINK_GetHardwareVersion()  returns 0x13880 (0000ms, 0168ms total)
T24F0 000:226 JLINK_GetDLLVersion()  returns 61009 (0000ms, 0168ms total)
T24F0 000:226 JLINK_GetFirmwareString(...) (0000ms, 0168ms total)
T24F0 000:226 JLINK_GetDLLVersion()  returns 61009 (0000ms, 0168ms total)
T24F0 000:226 JLINK_GetCompileDateTime() (0000ms, 0168ms total)
T24F0 000:226 JLINK_GetFirmwareString(...) (0000ms, 0168ms total)
T24F0 000:226 JLINK_GetHardwareVersion()  returns 0x13880 (0000ms, 0168ms total)
T24F0 000:226 JLINK_TIF_Select(JLINKARM_TIF_SWD)  returns 0x00 (0002ms, 0170ms total)
T24F0 000:228 JLINK_SetSpeed(5000) (0001ms, 0171ms total)
T24F0 000:229 JLINK_GetId() >0x108 TIF>Found SWD-DP with ID 0x1BA01477 >0x0D TIF> >0x28 TIF> >0x0D TIF> >0x28 TIF> >0x0D TIF> >0x28 TIF> >0x0D TIF> >0x28 TIF> >0x0D TIF> >0x21 TIF> >0x0D TIF> >0x28 TIF> >0x0D TIF> >0x28 TIF> >0x0D TIF> >0x28 TIF> >0x0D TIF> >0x21 TIF> >0x0D TIF> >0x21 TIF> >0x0D TIF> >0x28 TIF> >0x0D TIF> >0x21 TIF> >0x0D TIF> >0x21 TIF> >0x0D TIF> >0x28 TIF> >0x0D TIF> >0x21 TIF> >0x0D TIF> >0x21 TIF> >0x0D TIF> >0x28 TIF> >0x0D TIF> >0x21 TIF> >0x0D TIF> >0x21 TIF> >0x0D TIF>
 >0x28 TIF> >0x0D TIF> >0x21 TIF> >0x0D TIF> >0x21 TIF> >0x0D TIF> >0x28 TIF> >0x0D TIF> >0x21 TIF> >0x0D TIF> >0x21 TIF> >0x0D TIF> >0x28 TIF> >0x0D TIF> >0x21 TIF> >0x0D TIF> >0x21 TIF> >0x108 TIF>Found SWD-DP with ID 0x1BA01477 >0x0D TIF> >0x28 TIF> >0x0D TIF> >0x28 TIF> >0x0D TIF> >0x28 TIF> >0x0D TIF> >0x28 TIF> >0x0D TIF> >0x21 TIF> >0x0D TIF> >0x28 TIF> >0x0D TIF> >0x28 TIF> >0x0D TIF> >0x21 TIF> >0x0D TIF> >0x21 TIF> >0x0D TIF> >0x21 TIF>AP-IDR: 0x14770011, Type: AHB-AP >0x0D TIF> >0x28 TIF>
 >0x0D TIF> >0x28 TIF> >0x0D TIF> >0x28 TIF> >0x0D TIF> >0x21 TIF> >0x0D TIF> >0x21 TIF> >0x0D TIF> >0x28 TIF> >0x0D TIF> >0x21 TIF> >0x0D TIF> >0x21 TIF>Found Cortex-M3 r1p1, Little endian. -- CPU_ReadMem(4 bytes @ 0xE000EDF0) -- CPU_WriteMem(4 bytes @ 0xE000EDF0) -- CPU_ReadMem(4 bytes @ 0xE0002000)FPUnit: 6 code (BP) slots and 2 literal slots -- CPU_ReadMem(4 bytes @ 0xE000EDFC) -- CPU_WriteMem(4 bytes @ 0xE000EDFC) -- CPU_ReadMem(4 bytes @ 0xE0001000) -- CPU_WriteMem(4 bytes @ 0xE0001000)
 -- CPU_ReadMem(4 bytes @ 0xE000ED88) -- CPU_WriteMem(4 bytes @ 0xE000ED88) -- CPU_ReadMem(4 bytes @ 0xE000ED88) -- CPU_WriteMem(4 bytes @ 0xE000ED88)CoreSight components:ROMTbl 0 @ E00FF000 -- CPU_ReadMem(16 bytes @ 0xE00FF000) -- CPU_ReadMem(16 bytes @ 0xE000EFF0) -- CPU_ReadMem(16 bytes @ 0xE000EFE0)ROMTbl 0 [0]: FFF0F000, CID: B105E00D, PID: 001BB000 SCS -- CPU_ReadMem(16 bytes @ 0xE0001FF0) -- CPU_ReadMem(16 bytes @ 0xE0001FE0)ROMTbl 0 [1]: FFF02000, CID: B105E00D, PID: 001BB002 DWT
 -- CPU_ReadMem(16 bytes @ 0xE0002FF0) -- CPU_ReadMem(16 bytes @ 0xE0002FE0)ROMTbl 0 [2]: FFF03000, CID: B105E00D, PID: 000BB003 FPB -- CPU_ReadMem(16 bytes @ 0xE0000FF0) -- CPU_ReadMem(16 bytes @ 0xE0000FE0)ROMTbl 0 [3]: FFF01000, CID: B105E00D, PID: 001BB001 ITM -- CPU_ReadMem(16 bytes @ 0xE00FF010) -- CPU_ReadMem(16 bytes @ 0xE0040FF0) -- CPU_ReadMem(16 bytes @ 0xE0040FE0)ROMTbl 0 [4]: FFF41000, CID: B105900D, PID: 001BB923 TPIU-Lite -- CPU_ReadMem(16 bytes @ 0xE0041FF0)
 -- CPU_ReadMem(16 bytes @ 0xE0041FE0)ROMTbl 0 [5]: FFF42000, CID: B105900D, PID: 101BB924 ETM-M3 >0x0D TIF> >0x21 TIF>  returns 0x1BA01477 (0071ms, 0242ms total)
T24F0 000:300 JLINK_GetDLLVersion()  returns 61009 (0000ms, 0242ms total)
T24F0 000:300 JLINK_CORE_GetFound()  returns 0x30000FF (0000ms, 0242ms total)
T24F0 000:300 JLINK_GetDebugInfo(0x100) -- Value=0xE00FF000  returns 0x00 (0000ms, 0242ms total)
T24F0 000:300 JLINK_GetDebugInfo(0x100) -- Value=0xE00FF000  returns 0x00 (0000ms, 0242ms total)
T24F0 000:300 JLINK_GetDebugInfo(0x101) -- Value=0xE0041000  returns 0x00 (0000ms, 0242ms total)
T24F0 000:300 JLINK_GetDebugInfo(0x102) -- Value=0x00000000  returns 0x00 (0000ms, 0242ms total)
T24F0 000:300 JLINK_GetDebugInfo(0x103) -- Value=0xE0040000  returns 0x00 (0001ms, 0243ms total)
T24F0 000:301 JLINK_GetDebugInfo(0x104) -- Value=0xE0000000  returns 0x00 (0000ms, 0243ms total)
T24F0 000:301 JLINK_GetDebugInfo(0x105) -- Value=0xE0001000  returns 0x00 (0000ms, 0243ms total)
T24F0 000:301 JLINK_GetDebugInfo(0x106) -- Value=0xE0002000  returns 0x00 (0000ms, 0243ms total)
T24F0 000:301 JLINK_GetDebugInfo(0x107) -- Value=0xE000E000  returns 0x00 (0000ms, 0243ms total)
T24F0 000:301 JLINK_GetDebugInfo(0x10C) -- Value=0xE000EDF0  returns 0x00 (0000ms, 0243ms total)
T24F0 000:301 JLINK_ReadMemU32(0xE000ED00, 0x0001 Items, ...) -- CPU is running -- CPU_ReadMem(4 bytes @ 0xE000ED00) - Data: 31 C2 1F 41  returns 0x01 (0000ms, 0243ms total)
T24F0 000:301 JLINK_SetResetType(JLINKARM_RESET_TYPE_NORMAL)  returns JLINKARM_RESET_TYPE_NORMAL (0000ms, 0243ms total)
T24F0 000:301 JLINK_Reset() -- CPU is running -- CPU_WriteMem(4 bytes @ 0xE000EDF0) -- CPU is running -- CPU_WriteMem(4 bytes @ 0xE000EDFC) >0x35 TIF> -- CPU is running -- CPU_WriteMem(4 bytes @ 0xE000ED0C) -- CPU is running -- CPU_ReadMem(4 bytes @ 0xE000EDF0) -- CPU is running -- CPU_ReadMem(4 bytes @ 0xE000EDF0) -- CPU is running -- CPU_WriteMem(4 bytes @ 0xE000EDF0) -- CPU is running -- CPU_WriteMem(4 bytes @ 0xE000EDFC) -- CPU is running -- CPU_ReadMem(4 bytes @ 0xE000EDF0)
 -- CPU_WriteMem(4 bytes @ 0xE0002000) -- CPU_ReadMem(4 bytes @ 0xE000EDFC) -- CPU_ReadMem(4 bytes @ 0xE0001000) (0023ms, 0266ms total)
T24F0 000:324 JLINK_ReadReg(R15 (PC))  returns 0x080031B8 (0000ms, 0266ms total)
T24F0 000:324 JLINK_ReadReg(XPSR)  returns 0x01000000 (0000ms, 0266ms total)
T24F0 000:324 JLINK_Halt()  returns 0x00 (0000ms, 0266ms total)
T24F0 000:324 JLINK_IsHalted()  returns TRUE (0000ms, 0266ms total)
T24F0 000:324 JLINK_ReadMemU32(0xE000EDF0, 0x0001 Items, ...) -- CPU_ReadMem(4 bytes @ 0xE000EDF0) - Data: 03 00 03 00  returns 0x01 (0001ms, 0267ms total)
T24F0 000:325 JLINK_WriteU32(0xE000EDF0, 0xA05F0003) -- CPU_WriteMem(4 bytes @ 0xE000EDF0)  returns 0x00 (0001ms, 0268ms total)
T24F0 000:326 JLINK_WriteU32(0xE000EDFC, 0x01000000) -- CPU_WriteMem(4 bytes @ 0xE000EDFC)  returns 0x00 (0001ms, 0269ms total)
T24F0 000:327 JLINK_GetHWStatus(...)  returns 0x00 (0000ms, 0269ms total)
T24F0 000:327 JLINK_GetNumBPUnits(Type = 0xFFFFFF00)  returns 0x06 (0000ms, 0269ms total)
T24F0 000:327 JLINK_GetNumBPUnits(Type = 0xF0)  returns 0x2000 (0000ms, 0269ms total)
T24F0 000:327 JLINK_GetNumWPUnits()  returns 0x04 (0001ms, 0270ms total)
T24F0 000:328 JLINK_GetSpeed()  returns 0xFA0 (0000ms, 0270ms total)
T24F0 000:328 JLINK_ReadMemU32(0xE000E004, 0x0001 Items, ...) -- CPU_ReadMem(4 bytes @ 0xE000E004) - Data: 01 00 00 00  returns 0x01 (0000ms, 0270ms total)
T24F0 000:328 JLINK_ReadMemU32(0xE000E004, 0x0001 Items, ...) -- CPU_ReadMem(4 bytes @ 0xE000E004) - Data: 01 00 00 00  returns 0x01 (0001ms, 0271ms total)
T24F0 000:329 JLINK_WriteMem(0xE0001000, 0x001C Bytes, ...) - Data: 01 00 00 00 00 00 00 00 00 00 00 00 00 00 00 00 ... -- CPU_WriteMem(28 bytes @ 0xE0001000)  returns 0x1C (0001ms, 0272ms total)
T24F0 000:330 JLINK_ReadMem (0xE0001000, 0x001C Bytes, ...) -- CPU_ReadMem(28 bytes @ 0xE0001000) - Data: 01 00 00 40 00 00 00 00 00 00 00 00 00 00 00 00 ...  returns 0x00 (0001ms, 0273ms total)
T24F0 000:331 JLINK_ReadReg(R15 (PC))  returns 0x080031B8 (0000ms, 0273ms total)
T24F0 000:331 JLINK_ReadReg(XPSR)  returns 0x01000000 (0000ms, 0273ms total)
T24F0 000:416 JLINK_SetResetType(JLINKARM_RESET_TYPE_NORMAL)  returns JLINKARM_RESET_TYPE_NORMAL (0000ms, 0273ms total)
T24F0 000:416 JLINK_Reset() -- CPU_WriteMem(4 bytes @ 0xE000EDF0) -- CPU_WriteMem(4 bytes @ 0xE000EDFC) >0x35 TIF> -- CPU_WriteMem(4 bytes @ 0xE000ED0C) -- CPU_ReadMem(4 bytes @ 0xE000EDF0) -- CPU_ReadMem(4 bytes @ 0xE000EDF0) -- CPU_WriteMem(4 bytes @ 0xE000EDF0) -- CPU_WriteMem(4 bytes @ 0xE000EDFC) -- CPU is running -- CPU_ReadMem(4 bytes @ 0xE000EDF0) -- CPU_WriteMem(4 bytes @ 0xE0002000) -- CPU_ReadMem(4 bytes @ 0xE000EDFC) -- CPU_ReadMem(4 bytes @ 0xE0001000) (0024ms, 0297ms total)
T24F0 000:440 JLINK_ReadReg(R15 (PC))  returns 0x080031B8 (0000ms, 0297ms total)
T24F0 000:440 JLINK_ReadReg(XPSR)  returns 0x01000000 (0000ms, 0297ms total)
T24F0 000:440 JLINK_ReadMem (0x080030B8, 0x003C Bytes, ...) -- CPU_ReadMem(128 bytes @ 0x08003080) -- Updating C cache (128 bytes @ 0x08003080) -- Read from C cache (60 bytes @ 0x080030B8) - Data: 0A 54 2F 49 0E 98 03 F0 47 FF 00 90 03 F0 10 FF ...  returns 0x00 (0002ms, 0299ms total)
T24F0 000:442 JLINK_ReadMem (0x080030F4, 0x003C Bytes, ...) -- CPU_ReadMem(64 bytes @ 0x08003100) -- Updating C cache (64 bytes @ 0x08003100) -- Read from C cache (60 bytes @ 0x080030F4) - Data: F9 FE 00 B2 01 90 9D F8 05 20 20 46 61 1C CC B2 ...  returns 0x00 (0001ms, 0300ms total)
T24F0 000:443 JLINK_ReadMem (0x08003130, 0x003C Bytes, ...) -- CPU_ReadMem(64 bytes @ 0x08003140) -- Updating C cache (64 bytes @ 0x08003140) -- Read from C cache (60 bytes @ 0x08003130) - Data: CC B2 10 49 0A 54 9D F8 04 20 20 46 61 1C CC B2 ...  returns 0x00 (0001ms, 0301ms total)
T24F0 000:444 JLINK_ReadMem (0x0800316C, 0x003C Bytes, ...) -- CPU_ReadMem(64 bytes @ 0x08003180) -- Updating C cache (64 bytes @ 0x08003180) -- Read from C cache (60 bytes @ 0x0800316C) - Data: CC B2 01 49 0A 54 03 E0 F1 04 00 20 00 00 7A 44 ...  returns 0x00 (0001ms, 0302ms total)
T24F0 000:445 JLINK_ReadMem (0x080031A8, 0x003C Bytes, ...) -- CPU_ReadMem(64 bytes @ 0x080031C0) -- Updating C cache (64 bytes @ 0x080031C0) -- Read from C cache (60 bytes @ 0x080031A8) - Data: 02 48 FF F7 AB F9 BD E8 FC 9F 00 00 F1 04 00 20 ...  returns 0x00 (0002ms, 0304ms total)
T24F0 002:116 JLINK_ReadMem (0x20000514, 0x0002 Bytes, ...) -- CPU_ReadMem(64 bytes @ 0x20000500) -- Updating C cache (64 bytes @ 0x20000500) -- Read from C cache (2 bytes @ 0x20000514) - Data: E0 40  returns 0x00 (0001ms, 0305ms total)
T24F0 002:125 JLINK_ReadMem (0x200002AD, 0x0001 Bytes, ...) -- CPU_ReadMem(64 bytes @ 0x20000280) -- Updating C cache (64 bytes @ 0x20000280) -- Read from C cache (1 bytes @ 0x200002AD) - Data: 00  returns 0x00 (0001ms, 0306ms total)
T0448 002:193 JLINK_SetBPEx(Addr = 0x080002B8, Type = 0xFFFFFFF2)  returns 0x00000001 (0000ms, 0306ms total)
T0448 002:193 JLINK_Go() -- CPU_WriteMem(4 bytes @ 0xE0002000) -- CPU_ReadMem(4 bytes @ 0xE0001000) -- CPU_WriteMem(4 bytes @ 0xE0002008) -- CPU_WriteMem(4 bytes @ 0xE000200C) -- CPU_WriteMem(4 bytes @ 0xE0002010) -- CPU_WriteMem(4 bytes @ 0xE0002014) -- CPU_WriteMem(4 bytes @ 0xE0002018) -- CPU_WriteMem(4 bytes @ 0xE000201C) -- CPU_WriteMem(4 bytes @ 0xE0001004) (0006ms, 0312ms total)
T0448 002:300 JLINK_IsHalted()  returns TRUE (0003ms, 0315ms total)
T0448 002:303 JLINK_Halt()  returns 0x00 (0000ms, 0312ms total)
T0448 002:303 JLINK_IsHalted()  returns TRUE (0000ms, 0312ms total)
T0448 002:303 JLINK_IsHalted()  returns TRUE (0000ms, 0312ms total)
T0448 002:303 JLINK_IsHalted()  returns TRUE (0000ms, 0312ms total)
T0448 002:303 JLINK_ReadReg(R15 (PC))  returns 0x080002B8 (0000ms, 0312ms total)
T0448 002:303 JLINK_ReadReg(XPSR)  returns 0x61000000 (0000ms, 0312ms total)
T0448 002:303 JLINK_ClrBPEx(BPHandle = 0x00000001)  returns 0x00 (0000ms, 0312ms total)
T0448 002:304 JLINK_ReadMemU32(0xE000ED30, 0x0001 Items, ...) -- CPU_ReadMem(4 bytes @ 0xE000ED30) - Data: 03 00 00 00  returns 0x01 (0000ms, 0313ms total)
T0448 002:304 JLINK_ReadMemU32(0xE0001028, 0x0001 Items, ...) -- CPU_ReadMem(4 bytes @ 0xE0001028) - Data: 00 00 00 00  returns 0x01 (0001ms, 0314ms total)
T0448 002:305 JLINK_ReadMemU32(0xE0001038, 0x0001 Items, ...) -- CPU_ReadMem(4 bytes @ 0xE0001038) - Data: 00 02 00 00  returns 0x01 (0001ms, 0315ms total)
T0448 002:306 JLINK_ReadMemU32(0xE0001048, 0x0001 Items, ...) -- CPU_ReadMem(4 bytes @ 0xE0001048) - Data: 00 00 00 00  returns 0x01 (0001ms, 0316ms total)
T0448 002:307 JLINK_ReadMemU32(0xE0001058, 0x0001 Items, ...) -- CPU_ReadMem(4 bytes @ 0xE0001058) - Data: 00 00 00 00  returns 0x01 (0000ms, 0316ms total)
T0448 002:307 JLINK_ReadReg(R0)  returns 0x200005A8 (0000ms, 0316ms total)
T0448 002:307 JLINK_ReadReg(R1)  returns 0x200007A8 (0000ms, 0316ms total)
T0448 002:307 JLINK_ReadReg(R2)  returns 0x200007A8 (0000ms, 0316ms total)
T0448 002:307 JLINK_ReadReg(R3)  returns 0x200007A8 (0000ms, 0316ms total)
T0448 002:307 JLINK_ReadReg(R4)  returns 0x00000000 (0000ms, 0316ms total)
T0448 002:307 JLINK_ReadReg(R5)  returns 0x20000548 (0000ms, 0316ms total)
T0448 002:307 JLINK_ReadReg(R6)  returns 0x00000000 (0000ms, 0316ms total)
T0448 002:307 JLINK_ReadReg(R7)  returns 0x00000000 (0000ms, 0316ms total)
T0448 002:307 JLINK_ReadReg(R8)  returns 0x00000000 (0000ms, 0316ms total)
T0448 002:307 JLINK_ReadReg(R9)  returns 0x20000160 (0000ms, 0316ms total)
T0448 002:307 JLINK_ReadReg(R10)  returns 0x08007A24 (0000ms, 0316ms total)
T0448 002:307 JLINK_ReadReg(R11)  returns 0x00000000 (0000ms, 0316ms total)
T0448 002:307 JLINK_ReadReg(R12)  returns 0x20000588 (0000ms, 0316ms total)
T0448 002:307 JLINK_ReadReg(R13 (SP))  returns 0x20000BA8 (0000ms, 0316ms total)
T0448 002:307 JLINK_ReadReg(R14)  returns 0x080002A7 (0000ms, 0316ms total)
T0448 002:307 JLINK_ReadReg(R15 (PC))  returns 0x080002B8 (0000ms, 0316ms total)
T0448 002:307 JLINK_ReadReg(XPSR)  returns 0x61000000 (0001ms, 0317ms total)
T0448 002:308 JLINK_ReadReg(MSP)  returns 0x20000BA8 (0000ms, 0317ms total)
T0448 002:308 JLINK_ReadReg(PSP)  returns 0x20000800 (0000ms, 0317ms total)
T0448 002:308 JLINK_ReadReg(CFBP)  returns 0x00000000 (0000ms, 0317ms total)
T24F0 002:310 JLINK_ReadMem (0x20000514, 0x0002 Bytes, ...) -- CPU_ReadMem(64 bytes @ 0x20000500) -- Updating C cache (64 bytes @ 0x20000500) -- Read from C cache (2 bytes @ 0x20000514) - Data: 00 00  returns 0x00 (0002ms, 0319ms total)
T24F0 002:312 JLINK_ReadMem (0x200002AD, 0x0001 Bytes, ...) -- CPU_ReadMem(64 bytes @ 0x20000280) -- Updating C cache (64 bytes @ 0x20000280) -- Read from C cache (1 bytes @ 0x200002AD) - Data: 00  returns 0x00 (0001ms, 0320ms total)
T24F0 002:316 JLINK_ReadMem (0x080001B8, 0x003C Bytes, ...) -- CPU_ReadMem(128 bytes @ 0x08000180) -- Updating C cache (128 bytes @ 0x08000180) -- Read from C cache (60 bytes @ 0x080001B8) - Data: 01 F8 01 6B 6D 1E F9 D5 91 42 D6 D3 70 47 00 00 ...  returns 0x00 (0001ms, 0321ms total)
T24F0 002:317 JLINK_ReadMem (0x080001F4, 0x003C Bytes, ...) -- CPU_ReadMem(64 bytes @ 0x08000200) -- Updating C cache (64 bytes @ 0x08000200) -- Read from C cache (60 bytes @ 0x080001F4) - Data: 79 87 65 29 06 F0 76 87 67 29 06 F0 73 87 61 29 ...  returns 0x00 (0002ms, 0323ms total)
T24F0 002:319 JLINK_ReadMem (0x08000230, 0x003C Bytes, ...) -- CPU_ReadMem(64 bytes @ 0x08000240) -- Updating C cache (64 bytes @ 0x08000240) -- Read from C cache (60 bytes @ 0x08000230) - Data: E9 29 05 F0 51 82 E4 29 05 F0 4E 82 F5 29 05 F0 ...  returns 0x00 (0001ms, 0324ms total)
T24F0 002:320 JLINK_ReadMem (0x0800026C, 0x003C Bytes, ...) -- CPU_ReadMem(64 bytes @ 0x08000280) -- Updating C cache (64 bytes @ 0x08000280) -- Read from C cache (60 bytes @ 0x0800026C) - Data: 06 F0 22 80 00 20 70 47 1F B5 06 F0 73 F8 04 00 ...  returns 0x00 (0001ms, 0325ms total)
T24F0 002:321 JLINK_ReadMem (0x080002A8, 0x003C Bytes, ...) -- CPU_ReadMem(64 bytes @ 0x080002C0) -- Updating C cache (64 bytes @ 0x080002C0) -- Read from C cache (60 bytes @ 0x080002A8) - Data: 0D F9 03 B4 FF F7 F2 FF 03 BC 01 F0 8F F9 00 00 ...  returns 0x00 (0001ms, 0326ms total)
T0448 003:510 JLINK_SetBPEx(Addr = 0x080002BC, Type = 0xFFFFFFF2)  returns 0x00000002 (0000ms, 0326ms total)
T0448 003:510 JLINK_Go() -- CPU_WriteMem(4 bytes @ 0xE0002000) -- CPU_ReadMem(4 bytes @ 0xE0001000) -- CPU_WriteMem(4 bytes @ 0xE0002008) (0004ms, 0330ms total)
T0448 003:615 JLINK_IsHalted()  returns TRUE (0003ms, 0333ms total)
T0448 003:618 JLINK_Halt()  returns 0x00 (0000ms, 0330ms total)
T0448 003:618 JLINK_IsHalted()  returns TRUE (0000ms, 0330ms total)
T0448 003:618 JLINK_IsHalted()  returns TRUE (0000ms, 0330ms total)
T0448 003:618 JLINK_IsHalted()  returns TRUE (0000ms, 0330ms total)
T0448 003:618 JLINK_ReadReg(R15 (PC))  returns 0x080002BC (0000ms, 0330ms total)
T0448 003:618 JLINK_ReadReg(XPSR)  returns 0xA1000000 (0000ms, 0330ms total)
T0448 003:618 JLINK_ClrBPEx(BPHandle = 0x00000002)  returns 0x00 (0000ms, 0330ms total)
T0448 003:618 JLINK_ReadMemU32(0xE000ED30, 0x0001 Items, ...) -- CPU_ReadMem(4 bytes @ 0xE000ED30) - Data: 03 00 00 00  returns 0x01 (0001ms, 0331ms total)
T0448 003:619 JLINK_ReadMemU32(0xE0001028, 0x0001 Items, ...) -- CPU_ReadMem(4 bytes @ 0xE0001028) - Data: 00 00 00 00  returns 0x01 (0001ms, 0332ms total)
T0448 003:620 JLINK_ReadMemU32(0xE0001038, 0x0001 Items, ...) -- CPU_ReadMem(4 bytes @ 0xE0001038) - Data: 00 02 00 00  returns 0x01 (0001ms, 0333ms total)
T0448 003:621 JLINK_ReadMemU32(0xE0001048, 0x0001 Items, ...) -- CPU_ReadMem(4 bytes @ 0xE0001048) - Data: 00 00 00 00  returns 0x01 (0001ms, 0334ms total)
T0448 003:622 JLINK_ReadMemU32(0xE0001058, 0x0001 Items, ...) -- CPU_ReadMem(4 bytes @ 0xE0001058) - Data: 00 00 00 00  returns 0x01 (0001ms, 0335ms total)
T0448 003:623 JLINK_ReadReg(R0)  returns 0x00002328 (0000ms, 0335ms total)
T0448 003:623 JLINK_ReadReg(R1)  returns 0x200001E2 (0000ms, 0335ms total)
T0448 003:623 JLINK_ReadReg(R2)  returns 0xE000E000 (0000ms, 0335ms total)
T0448 003:623 JLINK_ReadReg(R3)  returns 0x200007A8 (0000ms, 0335ms total)
T0448 003:623 JLINK_ReadReg(R4)  returns 0x00000000 (0000ms, 0335ms total)
T0448 003:623 JLINK_ReadReg(R5)  returns 0x20000548 (0000ms, 0335ms total)
T0448 003:623 JLINK_ReadReg(R6)  returns 0x00000000 (0000ms, 0335ms total)
T0448 003:623 JLINK_ReadReg(R7)  returns 0x00000000 (0000ms, 0335ms total)
T0448 003:623 JLINK_ReadReg(R8)  returns 0x00000000 (0000ms, 0335ms total)
T0448 003:623 JLINK_ReadReg(R9)  returns 0x20000160 (0000ms, 0335ms total)
T0448 003:623 JLINK_ReadReg(R10)  returns 0x08007A24 (0000ms, 0335ms total)
T0448 003:623 JLINK_ReadReg(R11)  returns 0x00000000 (0000ms, 0335ms total)
T0448 003:623 JLINK_ReadReg(R12)  returns 0x20000588 (0000ms, 0335ms total)
T0448 003:623 JLINK_ReadReg(R13 (SP))  returns 0x20000BA8 (0000ms, 0335ms total)
T0448 003:623 JLINK_ReadReg(R14)  returns 0x080014FF (0000ms, 0335ms total)
T0448 003:623 JLINK_ReadReg(R15 (PC))  returns 0x080002BC (0000ms, 0335ms total)
T0448 003:623 JLINK_ReadReg(XPSR)  returns 0xA1000000 (0000ms, 0335ms total)
T0448 003:623 JLINK_ReadReg(MSP)  returns 0x20000BA8 (0000ms, 0335ms total)
T0448 003:623 JLINK_ReadReg(PSP)  returns 0x20000800 (0000ms, 0335ms total)
T0448 003:623 JLINK_ReadReg(CFBP)  returns 0x00000000 (0000ms, 0335ms total)
T24F0 003:624 JLINK_ReadMem (0x20000514, 0x0002 Bytes, ...) -- CPU_ReadMem(64 bytes @ 0x20000500) -- Updating C cache (64 bytes @ 0x20000500) -- Read from C cache (2 bytes @ 0x20000514) - Data: 00 00  returns 0x00 (0002ms, 0337ms total)
T24F0 003:626 JLINK_ReadMem (0x200002AD, 0x0001 Bytes, ...) -- CPU_ReadMem(64 bytes @ 0x20000280) -- Updating C cache (64 bytes @ 0x20000280) -- Read from C cache (1 bytes @ 0x200002AD) - Data: 00  returns 0x00 (0001ms, 0338ms total)
T24F0 003:638 JLINK_ReadMem (0x080002B6, 0x0002 Bytes, ...) -- CPU_ReadMem(64 bytes @ 0x08000280) -- Updating C cache (64 bytes @ 0x08000280) -- Read from C cache (2 bytes @ 0x080002B6) - Data: 00 00  returns 0x00 (0001ms, 0339ms total)
T24F0 003:639 JLINK_ReadMem (0x080002B8, 0x003C Bytes, ...) -- CPU_ReadMem(64 bytes @ 0x080002C0) -- Updating C cache (64 bytes @ 0x080002C0) -- Read from C cache (60 bytes @ 0x080002B8) - Data: 01 F0 1C F9 01 F0 84 F9 2F 48 30 49 08 60 30 48 ...  returns 0x00 (0001ms, 0340ms total)
T0448 003:818 JLINK_SetBPEx(Addr = 0x080002C0, Type = 0xFFFFFFF2)  returns 0x00000003 (0000ms, 0340ms total)
T0448 003:818 JLINK_Go() -- CPU_WriteMem(4 bytes @ 0xE0002000) -- CPU_ReadMem(4 bytes @ 0xE0001000) -- CPU_WriteMem(4 bytes @ 0xE0002008) (0003ms, 0343ms total)
T0448 003:922 JLINK_IsHalted()  returns TRUE (0002ms, 0345ms total)
T0448 003:925 JLINK_Halt()  returns 0x00 (0000ms, 0343ms total)
T0448 003:925 JLINK_IsHalted()  returns TRUE (0000ms, 0343ms total)
T0448 003:925 JLINK_IsHalted()  returns TRUE (0000ms, 0343ms total)
T0448 003:925 JLINK_IsHalted()  returns TRUE (0000ms, 0343ms total)
T0448 003:925 JLINK_ReadReg(R15 (PC))  returns 0x080002C0 (0000ms, 0343ms total)
T0448 003:925 JLINK_ReadReg(XPSR)  returns 0x21000000 (0000ms, 0343ms total)
T0448 003:925 JLINK_ClrBPEx(BPHandle = 0x00000003)  returns 0x00 (0000ms, 0343ms total)
T0448 003:925 JLINK_ReadMemU32(0xE000ED30, 0x0001 Items, ...) -- CPU_ReadMem(4 bytes @ 0xE000ED30) - Data: 03 00 00 00  returns 0x01 (0000ms, 0343ms total)
T0448 003:925 JLINK_ReadMemU32(0xE0001028, 0x0001 Items, ...) -- CPU_ReadMem(4 bytes @ 0xE0001028) - Data: 00 00 00 00  returns 0x01 (0001ms, 0344ms total)
T0448 003:926 JLINK_ReadMemU32(0xE0001038, 0x0001 Items, ...) -- CPU_ReadMem(4 bytes @ 0xE0001038) - Data: 00 02 00 00  returns 0x01 (0001ms, 0345ms total)
T0448 003:927 JLINK_ReadMemU32(0xE0001048, 0x0001 Items, ...) -- CPU_ReadMem(4 bytes @ 0xE0001048) - Data: 00 00 00 00  returns 0x01 (0001ms, 0346ms total)
T0448 003:928 JLINK_ReadMemU32(0xE0001058, 0x0001 Items, ...) -- CPU_ReadMem(4 bytes @ 0xE0001058) - Data: 00 00 00 00  returns 0x01 (0000ms, 0346ms total)
T0448 003:928 JLINK_ReadReg(R0)  returns 0x00000500 (0000ms, 0346ms total)
T0448 003:928 JLINK_ReadReg(R1)  returns 0x05FA0500 (0000ms, 0346ms total)
T0448 003:929 JLINK_ReadReg(R2)  returns 0xE000ED0C (0000ms, 0347ms total)
T0448 003:929 JLINK_ReadReg(R3)  returns 0x200007A8 (0000ms, 0347ms total)
T0448 003:929 JLINK_ReadReg(R4)  returns 0x00000000 (0000ms, 0347ms total)
T0448 003:929 JLINK_ReadReg(R5)  returns 0x20000548 (0000ms, 0347ms total)
T0448 003:929 JLINK_ReadReg(R6)  returns 0x00000000 (0000ms, 0347ms total)
T0448 003:929 JLINK_ReadReg(R7)  returns 0x00000000 (0000ms, 0347ms total)
T0448 003:929 JLINK_ReadReg(R8)  returns 0x00000000 (0000ms, 0347ms total)
T0448 003:929 JLINK_ReadReg(R9)  returns 0x20000160 (0000ms, 0347ms total)
T0448 003:929 JLINK_ReadReg(R10)  returns 0x08007A24 (0000ms, 0347ms total)
T0448 003:929 JLINK_ReadReg(R11)  returns 0x00000000 (0000ms, 0347ms total)
T0448 003:929 JLINK_ReadReg(R12)  returns 0x20000588 (0000ms, 0347ms total)
T0448 003:929 JLINK_ReadReg(R13 (SP))  returns 0x20000BA8 (0000ms, 0347ms total)
T0448 003:929 JLINK_ReadReg(R14)  returns 0x080015D3 (0000ms, 0347ms total)
T0448 003:929 JLINK_ReadReg(R15 (PC))  returns 0x080002C0 (0000ms, 0347ms total)
T0448 003:929 JLINK_ReadReg(XPSR)  returns 0x21000000 (0000ms, 0347ms total)
T0448 003:929 JLINK_ReadReg(MSP)  returns 0x20000BA8 (0000ms, 0347ms total)
T0448 003:929 JLINK_ReadReg(PSP)  returns 0x20000800 (0000ms, 0347ms total)
T0448 003:929 JLINK_ReadReg(CFBP)  returns 0x00000000 (0000ms, 0347ms total)
T24F0 003:931 JLINK_ReadMem (0x20000514, 0x0002 Bytes, ...) -- CPU_ReadMem(64 bytes @ 0x20000500) -- Updating C cache (64 bytes @ 0x20000500) -- Read from C cache (2 bytes @ 0x20000514) - Data: 00 00  returns 0x00 (0001ms, 0348ms total)
T24F0 003:932 JLINK_ReadMem (0x200002AD, 0x0001 Bytes, ...) -- CPU_ReadMem(64 bytes @ 0x20000280) -- Updating C cache (64 bytes @ 0x20000280) -- Read from C cache (1 bytes @ 0x200002AD) - Data: 00  returns 0x00 (0002ms, 0350ms total)
T24F0 003:941 JLINK_ReadMem (0x080002BC, 0x003C Bytes, ...) -- CPU_ReadMem(128 bytes @ 0x08000280) -- Updating C cache (128 bytes @ 0x08000280) -- Read from C cache (60 bytes @ 0x080002BC) - Data: 01 F0 84 F9 2F 48 30 49 08 60 30 48 48 60 30 48 ...  returns 0x00 (0001ms, 0351ms total)
T0448 004:137 JLINK_Step() -- Read from C cache (2 bytes @ 0x080002C0) -- CPU_ReadMem(4 bytes @ 0xE000ED18) -- CPU_WriteMem(4 bytes @ 0xE000ED18) -- CPU_ReadMem(4 bytes @ 0xE000ED18) -- CPU_WriteMem(4 bytes @ 0xE000ED18) -- CPU_ReadMem(4 bytes @ 0xE0001004) -- CPU_ReadMem(64 bytes @ 0x08000380) -- Updating C cache (64 bytes @ 0x08000380) -- Read from C cache (4 bytes @ 0x08000380) -- Simulated  returns 0x00 (0006ms, 0357ms total)
T0448 004:143 JLINK_ReadReg(R15 (PC))  returns 0x080002C2 (0000ms, 0357ms total)
T0448 004:143 JLINK_ReadReg(XPSR)  returns 0x21000000 (0000ms, 0357ms total)
T0448 004:143 JLINK_Step() -- Read from C cache (2 bytes @ 0x080002C2) -- Read from C cache (4 bytes @ 0x08000384) -- Simulated  returns 0x00 (0000ms, 0357ms total)
T0448 004:143 JLINK_ReadReg(R15 (PC))  returns 0x080002C4 (0000ms, 0357ms total)
T0448 004:143 JLINK_ReadReg(XPSR)  returns 0x21000000 (0000ms, 0357ms total)
T0448 004:143 JLINK_Step() -- Read from C cache (2 bytes @ 0x080002C4) -- CPU_WriteMem(4 bytes @ 0x20000220) -- Simulated  returns 0x00 (0000ms, 0357ms total)
T0448 004:143 JLINK_ReadReg(R15 (PC))  returns 0x080002C6 (0000ms, 0357ms total)
T0448 004:143 JLINK_ReadReg(XPSR)  returns 0x21000000 (0000ms, 0357ms total)
T0448 004:143 JLINK_ReadReg(R0)  returns 0x080008ED (0001ms, 0358ms total)
T0448 004:144 JLINK_ReadReg(R1)  returns 0x20000220 (0000ms, 0358ms total)
T0448 004:144 JLINK_ReadReg(R2)  returns 0xE000ED0C (0000ms, 0358ms total)
T0448 004:144 JLINK_ReadReg(R3)  returns 0x200007A8 (0000ms, 0358ms total)
T0448 004:144 JLINK_ReadReg(R4)  returns 0x00000000 (0000ms, 0358ms total)
T0448 004:144 JLINK_ReadReg(R5)  returns 0x20000548 (0000ms, 0358ms total)
T0448 004:144 JLINK_ReadReg(R6)  returns 0x00000000 (0000ms, 0358ms total)
T0448 004:144 JLINK_ReadReg(R7)  returns 0x00000000 (0000ms, 0358ms total)
T0448 004:144 JLINK_ReadReg(R8)  returns 0x00000000 (0000ms, 0358ms total)
T0448 004:144 JLINK_ReadReg(R9)  returns 0x20000160 (0000ms, 0358ms total)
T0448 004:144 JLINK_ReadReg(R10)  returns 0x08007A24 (0000ms, 0358ms total)
T0448 004:144 JLINK_ReadReg(R11)  returns 0x00000000 (0000ms, 0358ms total)
T0448 004:144 JLINK_ReadReg(R12)  returns 0x20000588 (0000ms, 0358ms total)
T0448 004:144 JLINK_ReadReg(R13 (SP))  returns 0x20000BA8 (0000ms, 0358ms total)
T0448 004:144 JLINK_ReadReg(R14)  returns 0x080015D3 (0000ms, 0358ms total)
T0448 004:144 JLINK_ReadReg(R15 (PC))  returns 0x080002C6 (0000ms, 0358ms total)
T0448 004:144 JLINK_ReadReg(XPSR)  returns 0x21000000 (0000ms, 0358ms total)
T0448 004:144 JLINK_ReadReg(MSP)  returns 0x20000BA8 (0000ms, 0358ms total)
T0448 004:144 JLINK_ReadReg(PSP)  returns 0x20000800 (0000ms, 0358ms total)
T0448 004:144 JLINK_ReadReg(CFBP)  returns 0x00000000 (0000ms, 0358ms total)
T24F0 004:146 JLINK_ReadMem (0x20000514, 0x0002 Bytes, ...) -- Read from C cache (2 bytes @ 0x20000514) - Data: 00 00  returns 0x00 (0000ms, 0358ms total)
T24F0 004:146 JLINK_ReadMem (0x200002AD, 0x0001 Bytes, ...) -- Read from C cache (1 bytes @ 0x200002AD) - Data: 00  returns 0x00 (0000ms, 0358ms total)
T24F0 004:156 JLINK_ReadMem (0x080002C6, 0x0002 Bytes, ...) -- Read from C cache (2 bytes @ 0x080002C6) - Data: 30 48  returns 0x00 (0000ms, 0358ms total)
T24F0 004:156 JLINK_ReadMem (0x080002C8, 0x003C Bytes, ...) -- CPU_ReadMem(64 bytes @ 0x08000300) -- Updating C cache (64 bytes @ 0x08000300) -- Read from C cache (60 bytes @ 0x080002C8) - Data: 48 60 30 48 88 60 30 48 C8 60 30 48 30 49 08 60 ...  returns 0x00 (0001ms, 0359ms total)
T0448 004:291 JLINK_Step() -- Read from C cache (2 bytes @ 0x080002C6) -- Read from C cache (4 bytes @ 0x08000388) -- Simulated  returns 0x00 (0000ms, 0359ms total)
T0448 004:291 JLINK_ReadReg(R15 (PC))  returns 0x080002C8 (0000ms, 0359ms total)
T0448 004:291 JLINK_ReadReg(XPSR)  returns 0x21000000 (0000ms, 0359ms total)
T0448 004:291 JLINK_Step() -- Read from C cache (2 bytes @ 0x080002C8) -- CPU_WriteMem(4 bytes @ 0x20000224) -- Simulated  returns 0x00 (0001ms, 0360ms total)
T0448 004:292 JLINK_ReadReg(R15 (PC))  returns 0x080002CA (0000ms, 0360ms total)
T0448 004:292 JLINK_ReadReg(XPSR)  returns 0x21000000 (0000ms, 0360ms total)
T0448 004:292 JLINK_ReadReg(R0)  returns 0x0800069B (0000ms, 0360ms total)
T0448 004:292 JLINK_ReadReg(R1)  returns 0x20000220 (0000ms, 0360ms total)
T0448 004:292 JLINK_ReadReg(R2)  returns 0xE000ED0C (0000ms, 0360ms total)
T0448 004:292 JLINK_ReadReg(R3)  returns 0x200007A8 (0000ms, 0360ms total)
T0448 004:292 JLINK_ReadReg(R4)  returns 0x00000000 (0000ms, 0360ms total)
T0448 004:292 JLINK_ReadReg(R5)  returns 0x20000548 (0000ms, 0360ms total)
T0448 004:292 JLINK_ReadReg(R6)  returns 0x00000000 (0000ms, 0360ms total)
T0448 004:292 JLINK_ReadReg(R7)  returns 0x00000000 (0000ms, 0360ms total)
T0448 004:292 JLINK_ReadReg(R8)  returns 0x00000000 (0000ms, 0360ms total)
T0448 004:292 JLINK_ReadReg(R9)  returns 0x20000160 (0000ms, 0360ms total)
T0448 004:292 JLINK_ReadReg(R10)  returns 0x08007A24 (0000ms, 0360ms total)
T0448 004:292 JLINK_ReadReg(R11)  returns 0x00000000 (0000ms, 0360ms total)
T0448 004:292 JLINK_ReadReg(R12)  returns 0x20000588 (0000ms, 0360ms total)
T0448 004:292 JLINK_ReadReg(R13 (SP))  returns 0x20000BA8 (0000ms, 0360ms total)
T0448 004:292 JLINK_ReadReg(R14)  returns 0x080015D3 (0000ms, 0360ms total)
T0448 004:292 JLINK_ReadReg(R15 (PC))  returns 0x080002CA (0000ms, 0360ms total)
T0448 004:292 JLINK_ReadReg(XPSR)  returns 0x21000000 (0000ms, 0360ms total)
T0448 004:292 JLINK_ReadReg(MSP)  returns 0x20000BA8 (0000ms, 0360ms total)
T0448 004:292 JLINK_ReadReg(PSP)  returns 0x20000800 (0000ms, 0360ms total)
T0448 004:292 JLINK_ReadReg(CFBP)  returns 0x00000000 (0000ms, 0360ms total)
T24F0 004:296 JLINK_ReadMem (0x20000514, 0x0002 Bytes, ...) -- Read from C cache (2 bytes @ 0x20000514) - Data: 00 00  returns 0x00 (0000ms, 0360ms total)
T24F0 004:296 JLINK_ReadMem (0x200002AD, 0x0001 Bytes, ...) -- Read from C cache (1 bytes @ 0x200002AD) - Data: 00  returns 0x00 (0000ms, 0360ms total)
T24F0 004:301 JLINK_ReadMem (0x080002C6, 0x0002 Bytes, ...) -- Read from C cache (2 bytes @ 0x080002C6) - Data: 30 48  returns 0x00 (0000ms, 0360ms total)
T24F0 004:301 JLINK_ReadMem (0x080002C8, 0x003C Bytes, ...) -- Read from C cache (60 bytes @ 0x080002C8) - Data: 48 60 30 48 88 60 30 48 C8 60 30 48 30 49 08 60 ...  returns 0x00 (0000ms, 0360ms total)
T0448 004:600 JLINK_Step() -- Read from C cache (2 bytes @ 0x080002CA) -- Read from C cache (4 bytes @ 0x0800038C) -- Simulated  returns 0x00 (0001ms, 0361ms total)
T0448 004:601 JLINK_ReadReg(R15 (PC))  returns 0x080002CC (0000ms, 0361ms total)
T0448 004:601 JLINK_ReadReg(XPSR)  returns 0x21000000 (0000ms, 0361ms total)
T0448 004:601 JLINK_Step() -- Read from C cache (2 bytes @ 0x080002CC) -- CPU_WriteMem(4 bytes @ 0x20000228) -- Simulated  returns 0x00 (0001ms, 0362ms total)
T0448 004:602 JLINK_ReadReg(R15 (PC))  returns 0x080002CE (0000ms, 0362ms total)
T0448 004:602 JLINK_ReadReg(XPSR)  returns 0x21000000 (0000ms, 0362ms total)
T0448 004:602 JLINK_ReadReg(R0)  returns 0x080007DF (0000ms, 0362ms total)
T0448 004:602 JLINK_ReadReg(R1)  returns 0x20000220 (0000ms, 0362ms total)
T0448 004:602 JLINK_ReadReg(R2)  returns 0xE000ED0C (0000ms, 0362ms total)
T0448 004:602 JLINK_ReadReg(R3)  returns 0x200007A8 (0000ms, 0362ms total)
T0448 004:602 JLINK_ReadReg(R4)  returns 0x00000000 (0000ms, 0362ms total)
T0448 004:602 JLINK_ReadReg(R5)  returns 0x20000548 (0000ms, 0362ms total)
T0448 004:602 JLINK_ReadReg(R6)  returns 0x00000000 (0000ms, 0362ms total)
T0448 004:602 JLINK_ReadReg(R7)  returns 0x00000000 (0000ms, 0362ms total)
T0448 004:602 JLINK_ReadReg(R8)  returns 0x00000000 (0000ms, 0362ms total)
T0448 004:602 JLINK_ReadReg(R9)  returns 0x20000160 (0000ms, 0362ms total)
T0448 004:602 JLINK_ReadReg(R10)  returns 0x08007A24 (0000ms, 0362ms total)
T0448 004:602 JLINK_ReadReg(R11)  returns 0x00000000 (0000ms, 0362ms total)
T0448 004:602 JLINK_ReadReg(R12)  returns 0x20000588 (0000ms, 0362ms total)
T0448 004:602 JLINK_ReadReg(R13 (SP))  returns 0x20000BA8 (0000ms, 0362ms total)
T0448 004:602 JLINK_ReadReg(R14)  returns 0x080015D3 (0000ms, 0362ms total)
T0448 004:602 JLINK_ReadReg(R15 (PC))  returns 0x080002CE (0000ms, 0362ms total)
T0448 004:602 JLINK_ReadReg(XPSR)  returns 0x21000000 (0000ms, 0362ms total)
T0448 004:602 JLINK_ReadReg(MSP)  returns 0x20000BA8 (0000ms, 0362ms total)
T0448 004:602 JLINK_ReadReg(PSP)  returns 0x20000800 (0000ms, 0362ms total)
T0448 004:602 JLINK_ReadReg(CFBP)  returns 0x00000000 (0000ms, 0362ms total)
T24F0 004:605 JLINK_ReadMem (0x20000514, 0x0002 Bytes, ...) -- Read from C cache (2 bytes @ 0x20000514) - Data: 00 00  returns 0x00 (0000ms, 0362ms total)
T24F0 004:605 JLINK_ReadMem (0x200002AD, 0x0001 Bytes, ...) -- Read from C cache (1 bytes @ 0x200002AD) - Data: 00  returns 0x00 (0000ms, 0362ms total)
T24F0 004:608 JLINK_ReadMem (0x080002CA, 0x0002 Bytes, ...) -- Read from C cache (2 bytes @ 0x080002CA) - Data: 30 48  returns 0x00 (0000ms, 0362ms total)
T24F0 004:608 JLINK_ReadMem (0x080002CC, 0x003C Bytes, ...) -- Read from C cache (60 bytes @ 0x080002CC) - Data: 88 60 30 48 C8 60 30 48 30 49 08 60 30 48 48 60 ...  returns 0x00 (0000ms, 0362ms total)
T0448 004:773 JLINK_Step() -- Read from C cache (2 bytes @ 0x080002CE) -- Read from C cache (4 bytes @ 0x08000390) -- Simulated  returns 0x00 (0000ms, 0362ms total)
T0448 004:773 JLINK_ReadReg(R15 (PC))  returns 0x080002D0 (0000ms, 0362ms total)
T0448 004:773 JLINK_ReadReg(XPSR)  returns 0x21000000 (0001ms, 0363ms total)
T0448 004:774 JLINK_Step() -- Read from C cache (2 bytes @ 0x080002D0) -- CPU_WriteMem(4 bytes @ 0x2000022C) -- Simulated  returns 0x00 (0000ms, 0363ms total)
T0448 004:774 JLINK_ReadReg(R15 (PC))  returns 0x080002D2 (0000ms, 0363ms total)
T0448 004:774 JLINK_ReadReg(XPSR)  returns 0x21000000 (0000ms, 0363ms total)
T0448 004:774 JLINK_ReadReg(R0)  returns 0x080006DB (0000ms, 0363ms total)
T0448 004:774 JLINK_ReadReg(R1)  returns 0x20000220 (0000ms, 0363ms total)
T0448 004:774 JLINK_ReadReg(R2)  returns 0xE000ED0C (0000ms, 0363ms total)
T0448 004:774 JLINK_ReadReg(R3)  returns 0x200007A8 (0000ms, 0363ms total)
T0448 004:774 JLINK_ReadReg(R4)  returns 0x00000000 (0000ms, 0363ms total)
T0448 004:774 JLINK_ReadReg(R5)  returns 0x20000548 (0000ms, 0363ms total)
T0448 004:774 JLINK_ReadReg(R6)  returns 0x00000000 (0000ms, 0363ms total)
T0448 004:774 JLINK_ReadReg(R7)  returns 0x00000000 (0000ms, 0363ms total)
T0448 004:774 JLINK_ReadReg(R8)  returns 0x00000000 (0000ms, 0363ms total)
T0448 004:774 JLINK_ReadReg(R9)  returns 0x20000160 (0000ms, 0363ms total)
T0448 004:774 JLINK_ReadReg(R10)  returns 0x08007A24 (0000ms, 0363ms total)
T0448 004:775 JLINK_ReadReg(R11)  returns 0x00000000 (0000ms, 0364ms total)
T0448 004:775 JLINK_ReadReg(R12)  returns 0x20000588 (0000ms, 0364ms total)
T0448 004:775 JLINK_ReadReg(R13 (SP))  returns 0x20000BA8 (0000ms, 0364ms total)
T0448 004:775 JLINK_ReadReg(R14)  returns 0x080015D3 (0000ms, 0364ms total)
T0448 004:775 JLINK_ReadReg(R15 (PC))  returns 0x080002D2 (0000ms, 0364ms total)
T0448 004:775 JLINK_ReadReg(XPSR)  returns 0x21000000 (0000ms, 0364ms total)
T0448 004:775 JLINK_ReadReg(MSP)  returns 0x20000BA8 (0000ms, 0364ms total)
T0448 004:775 JLINK_ReadReg(PSP)  returns 0x20000800 (0000ms, 0364ms total)
T0448 004:775 JLINK_ReadReg(CFBP)  returns 0x00000000 (0000ms, 0364ms total)
T24F0 004:777 JLINK_ReadMem (0x20000514, 0x0002 Bytes, ...) -- Read from C cache (2 bytes @ 0x20000514) - Data: 00 00  returns 0x00 (0000ms, 0364ms total)
T24F0 004:777 JLINK_ReadMem (0x200002AD, 0x0001 Bytes, ...) -- Read from C cache (1 bytes @ 0x200002AD) - Data: 00  returns 0x00 (0000ms, 0364ms total)
T24F0 004:782 JLINK_ReadMem (0x080002CC, 0x003C Bytes, ...) -- Read from C cache (60 bytes @ 0x080002CC) - Data: 88 60 30 48 C8 60 30 48 30 49 08 60 30 48 48 60 ...  returns 0x00 (0000ms, 0364ms total)
T0448 004:919 JLINK_Step() -- Read from C cache (2 bytes @ 0x080002D2) -- Read from C cache (4 bytes @ 0x08000394) -- Simulated  returns 0x00 (0000ms, 0364ms total)
T0448 004:919 JLINK_ReadReg(R15 (PC))  returns 0x080002D4 (0000ms, 0364ms total)
T0448 004:919 JLINK_ReadReg(XPSR)  returns 0x21000000 (0000ms, 0364ms total)
T0448 004:919 JLINK_Step() -- Read from C cache (2 bytes @ 0x080002D4) -- Read from C cache (4 bytes @ 0x08000398) -- Simulated  returns 0x00 (0000ms, 0364ms total)
T0448 004:919 JLINK_ReadReg(R15 (PC))  returns 0x080002D6 (0000ms, 0364ms total)
T0448 004:919 JLINK_ReadReg(XPSR)  returns 0x21000000 (0000ms, 0364ms total)
T0448 004:919 JLINK_Step() -- Read from C cache (2 bytes @ 0x080002D6) -- CPU_WriteMem(4 bytes @ 0x20000230) -- Simulated  returns 0x00 (0001ms, 0365ms total)
T0448 004:920 JLINK_ReadReg(R15 (PC))  returns 0x080002D8 (0000ms, 0365ms total)
T0448 004:920 JLINK_ReadReg(XPSR)  returns 0x21000000 (0000ms, 0365ms total)
T0448 004:920 JLINK_ReadReg(R0)  returns 0x08000B77 (0000ms, 0365ms total)
T0448 004:920 JLINK_ReadReg(R1)  returns 0x20000230 (0000ms, 0365ms total)
T0448 004:920 JLINK_ReadReg(R2)  returns 0xE000ED0C (0000ms, 0365ms total)
T0448 004:920 JLINK_ReadReg(R3)  returns 0x200007A8 (0000ms, 0365ms total)
T0448 004:920 JLINK_ReadReg(R4)  returns 0x00000000 (0000ms, 0365ms total)
T0448 004:920 JLINK_ReadReg(R5)  returns 0x20000548 (0000ms, 0365ms total)
T0448 004:920 JLINK_ReadReg(R6)  returns 0x00000000 (0000ms, 0365ms total)
T0448 004:920 JLINK_ReadReg(R7)  returns 0x00000000 (0000ms, 0365ms total)
T0448 004:920 JLINK_ReadReg(R8)  returns 0x00000000 (0000ms, 0365ms total)
T0448 004:920 JLINK_ReadReg(R9)  returns 0x20000160 (0000ms, 0365ms total)
T0448 004:920 JLINK_ReadReg(R10)  returns 0x08007A24 (0000ms, 0365ms total)
T0448 004:920 JLINK_ReadReg(R11)  returns 0x00000000 (0000ms, 0365ms total)
T0448 004:920 JLINK_ReadReg(R12)  returns 0x20000588 (0000ms, 0365ms total)
T0448 004:920 JLINK_ReadReg(R13 (SP))  returns 0x20000BA8 (0000ms, 0365ms total)
T0448 004:920 JLINK_ReadReg(R14)  returns 0x080015D3 (0000ms, 0365ms total)
T0448 004:920 JLINK_ReadReg(R15 (PC))  returns 0x080002D8 (0000ms, 0365ms total)
T0448 004:920 JLINK_ReadReg(XPSR)  returns 0x21000000 (0000ms, 0365ms total)
T0448 004:920 JLINK_ReadReg(MSP)  returns 0x20000BA8 (0000ms, 0365ms total)
T0448 004:920 JLINK_ReadReg(PSP)  returns 0x20000800 (0000ms, 0365ms total)
T0448 004:920 JLINK_ReadReg(CFBP)  returns 0x00000000 (0000ms, 0365ms total)
T24F0 004:924 JLINK_ReadMem (0x20000514, 0x0002 Bytes, ...) -- Read from C cache (2 bytes @ 0x20000514) - Data: 00 00  returns 0x00 (0000ms, 0365ms total)
T24F0 004:924 JLINK_ReadMem (0x200002AD, 0x0001 Bytes, ...) -- Read from C cache (1 bytes @ 0x200002AD) - Data: 00  returns 0x00 (0000ms, 0365ms total)
T24F0 004:931 JLINK_ReadMem (0x080002D2, 0x0002 Bytes, ...) -- Read from C cache (2 bytes @ 0x080002D2) - Data: 30 48  returns 0x00 (0000ms, 0365ms total)
T24F0 004:931 JLINK_ReadMem (0x080002D4, 0x003C Bytes, ...) -- Read from C cache (60 bytes @ 0x080002D4) - Data: 30 49 08 60 30 48 48 60 30 48 08 61 30 48 48 61 ...  returns 0x00 (0000ms, 0365ms total)
T0448 005:074 JLINK_Step() -- Read from C cache (2 bytes @ 0x080002D8) -- Read from C cache (4 bytes @ 0x0800039C) -- Simulated  returns 0x00 (0000ms, 0365ms total)
T0448 005:074 JLINK_ReadReg(R15 (PC))  returns 0x080002DA (0000ms, 0365ms total)
T0448 005:074 JLINK_ReadReg(XPSR)  returns 0x21000000 (0000ms, 0365ms total)
T0448 005:074 JLINK_Step() -- Read from C cache (2 bytes @ 0x080002DA) -- CPU_WriteMem(4 bytes @ 0x20000234) -- Simulated  returns 0x00 (0001ms, 0366ms total)
T0448 005:075 JLINK_ReadReg(R15 (PC))  returns 0x080002DC (0000ms, 0366ms total)
T0448 005:075 JLINK_ReadReg(XPSR)  returns 0x21000000 (0000ms, 0366ms total)
T0448 005:075 JLINK_ReadReg(R0)  returns 0x08000CDB (0000ms, 0366ms total)
T0448 005:075 JLINK_ReadReg(R1)  returns 0x20000230 (0000ms, 0366ms total)
T0448 005:075 JLINK_ReadReg(R2)  returns 0xE000ED0C (0000ms, 0366ms total)
T0448 005:075 JLINK_ReadReg(R3)  returns 0x200007A8 (0000ms, 0366ms total)
T0448 005:075 JLINK_ReadReg(R4)  returns 0x00000000 (0000ms, 0366ms total)
T0448 005:075 JLINK_ReadReg(R5)  returns 0x20000548 (0000ms, 0366ms total)
T0448 005:075 JLINK_ReadReg(R6)  returns 0x00000000 (0000ms, 0366ms total)
T0448 005:075 JLINK_ReadReg(R7)  returns 0x00000000 (0000ms, 0366ms total)
T0448 005:075 JLINK_ReadReg(R8)  returns 0x00000000 (0000ms, 0366ms total)
T0448 005:075 JLINK_ReadReg(R9)  returns 0x20000160 (0000ms, 0366ms total)
T0448 005:075 JLINK_ReadReg(R10)  returns 0x08007A24 (0000ms, 0366ms total)
T0448 005:075 JLINK_ReadReg(R11)  returns 0x00000000 (0000ms, 0366ms total)
T0448 005:075 JLINK_ReadReg(R12)  returns 0x20000588 (0000ms, 0366ms total)
T0448 005:075 JLINK_ReadReg(R13 (SP))  returns 0x20000BA8 (0000ms, 0366ms total)
T0448 005:075 JLINK_ReadReg(R14)  returns 0x080015D3 (0000ms, 0366ms total)
T0448 005:075 JLINK_ReadReg(R15 (PC))  returns 0x080002DC (0000ms, 0366ms total)
T0448 005:075 JLINK_ReadReg(XPSR)  returns 0x21000000 (0000ms, 0366ms total)
T0448 005:075 JLINK_ReadReg(MSP)  returns 0x20000BA8 (0000ms, 0366ms total)
T0448 005:075 JLINK_ReadReg(PSP)  returns 0x20000800 (0000ms, 0366ms total)
T0448 005:075 JLINK_ReadReg(CFBP)  returns 0x00000000 (0000ms, 0366ms total)
T24F0 005:079 JLINK_ReadMem (0x20000514, 0x0002 Bytes, ...) -- Read from C cache (2 bytes @ 0x20000514) - Data: 00 00  returns 0x00 (0000ms, 0366ms total)
T24F0 005:079 JLINK_ReadMem (0x200002AD, 0x0001 Bytes, ...) -- Read from C cache (1 bytes @ 0x200002AD) - Data: 00  returns 0x00 (0000ms, 0366ms total)
T24F0 005:085 JLINK_ReadMem (0x080002D6, 0x0002 Bytes, ...) -- Read from C cache (2 bytes @ 0x080002D6) - Data: 08 60  returns 0x00 (0000ms, 0366ms total)
T24F0 005:085 JLINK_ReadMem (0x080002D8, 0x003C Bytes, ...) -- Read from C cache (60 bytes @ 0x080002D8) - Data: 30 48 48 60 30 48 08 61 30 48 48 61 30 48 31 49 ...  returns 0x00 (0000ms, 0366ms total)
T0448 005:222 JLINK_Step() -- Read from C cache (2 bytes @ 0x080002DC) -- Read from C cache (4 bytes @ 0x080003A0) -- Simulated  returns 0x00 (0001ms, 0367ms total)
T0448 005:223 JLINK_ReadReg(R15 (PC))  returns 0x080002DE (0000ms, 0367ms total)
T0448 005:223 JLINK_ReadReg(XPSR)  returns 0x21000000 (0000ms, 0367ms total)
T0448 005:223 JLINK_Step() -- Read from C cache (2 bytes @ 0x080002DE) -- CPU_WriteMem(4 bytes @ 0x20000240) -- Simulated  returns 0x00 (0001ms, 0368ms total)
T0448 005:224 JLINK_ReadReg(R15 (PC))  returns 0x080002E0 (0000ms, 0368ms total)
T0448 005:224 JLINK_ReadReg(XPSR)  returns 0x21000000 (0000ms, 0368ms total)
T0448 005:224 JLINK_ReadReg(R0)  returns 0x08000B2B (0000ms, 0368ms total)
T0448 005:224 JLINK_ReadReg(R1)  returns 0x20000230 (0000ms, 0368ms total)
T0448 005:224 JLINK_ReadReg(R2)  returns 0xE000ED0C (0000ms, 0368ms total)
T0448 005:224 JLINK_ReadReg(R3)  returns 0x200007A8 (0000ms, 0368ms total)
T0448 005:224 JLINK_ReadReg(R4)  returns 0x00000000 (0000ms, 0368ms total)
T0448 005:224 JLINK_ReadReg(R5)  returns 0x20000548 (0000ms, 0368ms total)
T0448 005:224 JLINK_ReadReg(R6)  returns 0x00000000 (0000ms, 0368ms total)
T0448 005:224 JLINK_ReadReg(R7)  returns 0x00000000 (0000ms, 0368ms total)
T0448 005:224 JLINK_ReadReg(R8)  returns 0x00000000 (0000ms, 0368ms total)
T0448 005:224 JLINK_ReadReg(R9)  returns 0x20000160 (0000ms, 0368ms total)
T0448 005:224 JLINK_ReadReg(R10)  returns 0x08007A24 (0000ms, 0368ms total)
T0448 005:224 JLINK_ReadReg(R11)  returns 0x00000000 (0000ms, 0368ms total)
T0448 005:224 JLINK_ReadReg(R12)  returns 0x20000588 (0000ms, 0368ms total)
T0448 005:224 JLINK_ReadReg(R13 (SP))  returns 0x20000BA8 (0000ms, 0368ms total)
T0448 005:224 JLINK_ReadReg(R14)  returns 0x080015D3 (0000ms, 0368ms total)
T0448 005:224 JLINK_ReadReg(R15 (PC))  returns 0x080002E0 (0000ms, 0368ms total)
T0448 005:224 JLINK_ReadReg(XPSR)  returns 0x21000000 (0000ms, 0368ms total)
T0448 005:224 JLINK_ReadReg(MSP)  returns 0x20000BA8 (0000ms, 0368ms total)
T0448 005:224 JLINK_ReadReg(PSP)  returns 0x20000800 (0000ms, 0368ms total)
T0448 005:224 JLINK_ReadReg(CFBP)  returns 0x00000000 (0000ms, 0368ms total)
T24F0 005:228 JLINK_ReadMem (0x20000514, 0x0002 Bytes, ...) -- Read from C cache (2 bytes @ 0x20000514) - Data: 00 00  returns 0x00 (0000ms, 0368ms total)
T24F0 005:228 JLINK_ReadMem (0x200002AD, 0x0001 Bytes, ...) -- Read from C cache (1 bytes @ 0x200002AD) - Data: 00  returns 0x00 (0000ms, 0368ms total)
T24F0 005:231 JLINK_ReadMem (0x080002DC, 0x003C Bytes, ...) -- Read from C cache (60 bytes @ 0x080002DC) - Data: 30 48 08 61 30 48 48 61 30 48 31 49 08 60 31 48 ...  returns 0x00 (0000ms, 0368ms total)
T0448 005:377 JLINK_Step() -- Read from C cache (2 bytes @ 0x080002E0) -- Read from C cache (4 bytes @ 0x080003A4) -- Simulated  returns 0x00 (0001ms, 0369ms total)
T0448 005:378 JLINK_ReadReg(R15 (PC))  returns 0x080002E2 (0000ms, 0369ms total)
T0448 005:378 JLINK_ReadReg(XPSR)  returns 0x21000000 (0000ms, 0369ms total)
T0448 005:378 JLINK_Step() -- Read from C cache (2 bytes @ 0x080002E2) -- CPU_WriteMem(4 bytes @ 0x20000244) -- Simulated  returns 0x00 (0000ms, 0369ms total)
T0448 005:378 JLINK_ReadReg(R15 (PC))  returns 0x080002E4 (0000ms, 0369ms total)
T0448 005:378 JLINK_ReadReg(XPSR)  returns 0x21000000 (0000ms, 0369ms total)
T0448 005:378 JLINK_ReadReg(R0)  returns 0x08000DE1 (0000ms, 0369ms total)
T0448 005:378 JLINK_ReadReg(R1)  returns 0x20000230 (0000ms, 0369ms total)
T0448 005:379 JLINK_ReadReg(R2)  returns 0xE000ED0C (0000ms, 0370ms total)
T0448 005:379 JLINK_ReadReg(R3)  returns 0x200007A8 (0000ms, 0370ms total)
T0448 005:379 JLINK_ReadReg(R4)  returns 0x00000000 (0000ms, 0370ms total)
T0448 005:379 JLINK_ReadReg(R5)  returns 0x20000548 (0000ms, 0370ms total)
T0448 005:379 JLINK_ReadReg(R6)  returns 0x00000000 (0000ms, 0370ms total)
T0448 005:379 JLINK_ReadReg(R7)  returns 0x00000000 (0000ms, 0370ms total)
T0448 005:379 JLINK_ReadReg(R8)  returns 0x00000000 (0000ms, 0370ms total)
T0448 005:379 JLINK_ReadReg(R9)  returns 0x20000160 (0000ms, 0370ms total)
T0448 005:379 JLINK_ReadReg(R10)  returns 0x08007A24 (0000ms, 0370ms total)
T0448 005:379 JLINK_ReadReg(R11)  returns 0x00000000 (0000ms, 0370ms total)
T0448 005:379 JLINK_ReadReg(R12)  returns 0x20000588 (0000ms, 0370ms total)
T0448 005:379 JLINK_ReadReg(R13 (SP))  returns 0x20000BA8 (0000ms, 0370ms total)
T0448 005:379 JLINK_ReadReg(R14)  returns 0x080015D3 (0000ms, 0370ms total)
T0448 005:379 JLINK_ReadReg(R15 (PC))  returns 0x080002E4 (0000ms, 0370ms total)
T0448 005:379 JLINK_ReadReg(XPSR)  returns 0x21000000 (0000ms, 0370ms total)
T0448 005:379 JLINK_ReadReg(MSP)  returns 0x20000BA8 (0000ms, 0370ms total)
T0448 005:379 JLINK_ReadReg(PSP)  returns 0x20000800 (0000ms, 0370ms total)
T0448 005:379 JLINK_ReadReg(CFBP)  returns 0x00000000 (0000ms, 0370ms total)
T24F0 005:382 JLINK_ReadMem (0x20000514, 0x0002 Bytes, ...) -- Read from C cache (2 bytes @ 0x20000514) - Data: 00 00  returns 0x00 (0000ms, 0370ms total)
T24F0 005:382 JLINK_ReadMem (0x200002AD, 0x0001 Bytes, ...) -- Read from C cache (1 bytes @ 0x200002AD) - Data: 00  returns 0x00 (0000ms, 0370ms total)
T24F0 005:387 JLINK_ReadMem (0x080002DE, 0x0002 Bytes, ...) -- Read from C cache (2 bytes @ 0x080002DE) - Data: 08 61  returns 0x00 (0000ms, 0370ms total)
T24F0 005:387 JLINK_ReadMem (0x080002E0, 0x003C Bytes, ...) -- Read from C cache (60 bytes @ 0x080002E0) - Data: 30 48 48 61 30 48 31 49 08 60 31 48 88 60 31 48 ...  returns 0x00 (0000ms, 0370ms total)
T0448 005:532 JLINK_Step() -- Read from C cache (2 bytes @ 0x080002E4) -- Read from C cache (4 bytes @ 0x080003A8) -- Simulated  returns 0x00 (0000ms, 0370ms total)
T0448 005:532 JLINK_ReadReg(R15 (PC))  returns 0x080002E6 (0000ms, 0370ms total)
T0448 005:532 JLINK_ReadReg(XPSR)  returns 0x21000000 (0001ms, 0371ms total)
T0448 005:533 JLINK_Step() -- Read from C cache (2 bytes @ 0x080002E6) -- Read from C cache (4 bytes @ 0x080003AC) -- Simulated  returns 0x00 (0000ms, 0371ms total)
T0448 005:533 JLINK_ReadReg(R15 (PC))  returns 0x080002E8 (0000ms, 0371ms total)
T0448 005:533 JLINK_ReadReg(XPSR)  returns 0x21000000 (0000ms, 0371ms total)
T0448 005:533 JLINK_Step() -- Read from C cache (2 bytes @ 0x080002E8) -- CPU_WriteMem(4 bytes @ 0x20000248) -- Simulated  returns 0x00 (0001ms, 0372ms total)
T0448 005:534 JLINK_ReadReg(R15 (PC))  returns 0x080002EA (0000ms, 0372ms total)
T0448 005:534 JLINK_ReadReg(XPSR)  returns 0x21000000 (0000ms, 0372ms total)
T0448 005:534 JLINK_ReadReg(R0)  returns 0x0800160B (0000ms, 0372ms total)
T0448 005:534 JLINK_ReadReg(R1)  returns 0x20000248 (0000ms, 0372ms total)
T0448 005:534 JLINK_ReadReg(R2)  returns 0xE000ED0C (0000ms, 0372ms total)
T0448 005:534 JLINK_ReadReg(R3)  returns 0x200007A8 (0000ms, 0372ms total)
T0448 005:534 JLINK_ReadReg(R4)  returns 0x00000000 (0000ms, 0372ms total)
T0448 005:534 JLINK_ReadReg(R5)  returns 0x20000548 (0000ms, 0372ms total)
T0448 005:534 JLINK_ReadReg(R6)  returns 0x00000000 (0000ms, 0372ms total)
T0448 005:534 JLINK_ReadReg(R7)  returns 0x00000000 (0000ms, 0372ms total)
T0448 005:534 JLINK_ReadReg(R8)  returns 0x00000000 (0000ms, 0372ms total)
T0448 005:534 JLINK_ReadReg(R9)  returns 0x20000160 (0000ms, 0372ms total)
T0448 005:534 JLINK_ReadReg(R10)  returns 0x08007A24 (0000ms, 0372ms total)
T0448 005:534 JLINK_ReadReg(R11)  returns 0x00000000 (0000ms, 0372ms total)
T0448 005:534 JLINK_ReadReg(R12)  returns 0x20000588 (0000ms, 0372ms total)
T0448 005:534 JLINK_ReadReg(R13 (SP))  returns 0x20000BA8 (0000ms, 0372ms total)
T0448 005:534 JLINK_ReadReg(R14)  returns 0x080015D3 (0000ms, 0372ms total)
T0448 005:534 JLINK_ReadReg(R15 (PC))  returns 0x080002EA (0000ms, 0372ms total)
T0448 005:534 JLINK_ReadReg(XPSR)  returns 0x21000000 (0000ms, 0372ms total)
T0448 005:534 JLINK_ReadReg(MSP)  returns 0x20000BA8 (0000ms, 0372ms total)
T0448 005:534 JLINK_ReadReg(PSP)  returns 0x20000800 (0000ms, 0372ms total)
